TB750 25159:678.947   SEGGER J-Link V7.62a Log File
TB750 25159:679.232   DLL Compiled: Feb 23 2022 16:58:13
TB750 25159:679.246   Logging started @ 2022-05-04 09:45
TB750 25159:679.257 - 24708.827ms
TB750 25159:679.271 JLINK_SetWarnOutHandler(...)
TB750 25159:679.283 - 0.017ms
TB750 25159:679.296 JLINK_OpenEx(...)
TB750 25159:680.622   Firmware: J-Link V9 compiled May  7 2021 16:26:12
TB750 25159:681.109   Firmware: J-Link V9 compiled May  7 2021 16:26:12
TB750 25159:681.256   Decompressing FW timestamp took 113 us
TB750 25159:688.555   Hardware: V9.60
TB750 25159:688.588   S/N: 69618875
TB750 25159:688.605   OEM: SEGGER
TB750 25159:688.623   Feature(s): RDI, GDB, FlashDL, FlashBP, JFlash
TB750 25159:690.489   TELNET listener socket opened on port 19021
TB750 25159:693.701   WEBSRV WEBSRV_Init(): Starting webserver thread(s)
TB750 25159:693.897   WEBSRV Webserver running on local port 19080
TB750 25159:704.720 - 25.454ms returns "O.K."
TB750 25159:704.768 JLINK_GetEmuCaps()
TB750 25159:704.784 - 0.024ms returns 0xB9FF7BBF
TB750 25159:704.802 JLINK_TIF_GetAvailable(...)
TB750 25159:705.280 - 0.496ms
TB750 25159:705.313 JLINK_SetErrorOutHandler(...)
TB750 25159:705.333 - 0.029ms
TB750 25159:705.797 JLINK_ExecCommand("ProjectFile = "D:\Work_Data\SCUD\Project\Heiwushi\HWS_Software\APP\GD32E503V_EVAL_Demo_Suites\Projects\05_USART_HyperTerminal_Interrupt\MDK-ARM\JLinkSettings.ini"", ...). 
TB750 25159:707.867 - 2.080ms returns 0x00
TB750 25159:709.155 JLINK_ExecCommand("Device = GD32E503VC", ...). 
TB750 25159:710.449   Device "GD32E503VC" selected.
TB750 25159:711.120 - 1.954ms returns 0x00
TB750 25159:711.138 JLINK_ExecCommand("DisableConnectionTimeout", ...). 
TB750 25159:711.153 - 0.007ms returns 0x01
TB750 25159:711.166 JLINK_GetHardwareVersion()
TB750 25159:711.178 - 0.017ms returns 96000
TB750 25159:711.190 JLINK_GetDLLVersion()
TB750 25159:711.202 - 0.017ms returns 76201
TB750 25159:711.214 JLINK_GetOEMString(...)
TB750 25159:711.227 JLINK_GetFirmwareString(...)
TB750 25159:711.239 - 0.017ms
TB750 25159:717.261 JLINK_GetDLLVersion()
TB750 25159:717.280 - 0.024ms returns 76201
TB750 25159:717.293 JLINK_GetCompileDateTime()
TB750 25159:717.305 - 0.017ms
TB750 25159:719.497 JLINK_GetFirmwareString(...)
TB750 25159:719.515 - 0.023ms
TB750 25159:721.712 JLINK_GetHardwareVersion()
TB750 25159:721.729 - 0.022ms returns 96000
TB750 25159:724.381 JLINK_GetSN()
TB750 25159:724.400 - 0.025ms returns 69618875
TB750 25159:726.655 JLINK_GetOEMString(...)
TB750 25159:731.315 JLINK_TIF_Select(JLINKARM_TIF_SWD)
TB750 25159:732.770 - 1.468ms returns 0x00
TB750 25159:732.794 JLINK_HasError()
TB750 25159:732.811 JLINK_SetSpeed(2000)
TB750 25159:733.400 - 0.610ms
TB750 25159:733.437 JLINK_GetId()
TB750 25159:737.029   Found SW-DP with ID 0x0BE12477
TB750 25159:743.311   DPIDR: 0x0BE12477
TB750 25159:745.522   CoreSight SoC-400 or earlier
TB750 25159:747.698   Scanning AP map to find all available APs
TB750 25159:750.725   AP[1]: Stopped AP scan as end of AP map has been reached
TB750 25159:752.927   AP[0]: AHB-AP (IDR: 0x14770015)
TB750 25159:755.104   Iterating through AP map to find AHB-AP to use
TB750 25159:759.120   AP[0]: Core found
TB750 25159:761.300   AP[0]: AHB-AP ROM base: 0xE00FE000
TB750 25159:764.061   CPUID register: 0x410FD214. Implementer code: 0x41 (ARM)
TB750 25159:766.250   Feature set: Mainline
TB750 25159:768.428   Found Cortex-M33 r0p4, Little endian.
TB750 25159:870.363   -- Max. mem block: 0x00010C40
TB750 25159:871.258   CPU_ReadMem(4 bytes @ 0xE000EDF0)
TB750 25159:871.771   CPU_WriteMem(4 bytes @ 0xE000EDF0)
TB750 25159:872.262   CPU_ReadMem(4 bytes @ 0xE0002000)
TB750 25159:875.618   FPUnit: 8 code (BP) slots and 0 literal slots
TB750 25159:875.644   CPU_ReadMem(4 bytes @ 0xE000EDFC)
TB750 25159:876.142   CPU_WriteMem(4 bytes @ 0xE000EDFC)
TB750 25159:876.670   CPU_ReadMem(4 bytes @ 0xE0001000)
TB750 25159:877.170   CPU_ReadMem(4 bytes @ 0xE0001000)
TB750 25159:877.633   CPU_ReadMem(4 bytes @ 0xE0001028)
TB750 25159:878.119   CPU_ReadMem(4 bytes @ 0xE0001038)
TB750 25159:878.674   CPU_ReadMem(4 bytes @ 0xE0001048)
TB750 25159:879.150   CPU_ReadMem(4 bytes @ 0xE0001058)
TB750 25159:879.665   CPU_WriteMem(4 bytes @ 0xE0001000)
TB750 25159:880.153   CPU_ReadMem(4 bytes @ 0xE000ED88)
TB750 25159:880.666   CPU_WriteMem(4 bytes @ 0xE000ED88)
TB750 25159:881.197   CPU_ReadMem(4 bytes @ 0xE000ED88)
TB750 25159:881.686   CPU_WriteMem(4 bytes @ 0xE000ED88)
TB750 25159:882.170   CPU_ReadMem(4 bytes @ 0xE000EFB8)
TB750 25159:885.344   Security extension: not implemented
TB750 25159:887.894   CoreSight components:
TB750 25159:890.233   ROMTbl[0] @ E00FE000
TB750 25159:890.273   CPU_ReadMem(64 bytes @ 0xE00FE000)
TB750 25159:891.278   CPU_ReadMem(32 bytes @ 0xE00FFFE0)
TB750 25159:894.416   [0][0]: E00FF000 CID B105100D PID 000BB4C9 ROM Table
TB750 25159:896.623   ROMTbl[1] @ E00FF000
TB750 25159:896.648   CPU_ReadMem(64 bytes @ 0xE00FF000)
TB750 25159:897.637   CPU_ReadMem(32 bytes @ 0xE000EFE0)
TB750 25159:898.386   CPU_ReadMem(4 bytes @ 0xE000EFBC)
TB750 25159:898.884   CPU_ReadMem(4 bytes @ 0xE000EFCC)
TB750 25159:901.788   [1][0]: E000E000 CID B105900D PID 000BBD21 DEVARCH 47702A04 DEVTYPE 00 Cortex-M33
TB750 25159:901.814   CPU_ReadMem(32 bytes @ 0xE0001FE0)
TB750 25159:902.491   CPU_ReadMem(4 bytes @ 0xE0001FBC)
TB750 25159:902.991   CPU_ReadMem(4 bytes @ 0xE0001FCC)
TB750 25159:905.959   [1][1]: E0001000 CID B105900D PID 000BBD21 DEVARCH 47701A02 DEVTYPE 00 DWT
TB750 25159:905.984   CPU_ReadMem(32 bytes @ 0xE0002FE0)
TB750 25159:906.698   CPU_ReadMem(4 bytes @ 0xE0002FBC)
TB750 25159:907.204   CPU_ReadMem(4 bytes @ 0xE0002FCC)
TB750 25159:910.157   [1][2]: E0002000 CID B105900D PID 000BBD21 DEVARCH 47701A03 DEVTYPE 00 FPB
TB750 25159:910.183   CPU_ReadMem(32 bytes @ 0xE0000FE0)
TB750 25159:910.858   CPU_ReadMem(4 bytes @ 0xE0000FBC)
TB750 25159:911.362   CPU_ReadMem(4 bytes @ 0xE0000FCC)
TB750 25159:914.921   [1][3]: E0000000 CID B105900D PID 000BBD21 DEVARCH 47701A01 DEVTYPE 43 ITM
TB750 25159:914.948   CPU_ReadMem(32 bytes @ 0xE0040FE0)
TB750 25159:915.654   CPU_ReadMem(4 bytes @ 0xE0040FBC)
TB750 25159:916.156   CPU_ReadMem(4 bytes @ 0xE0040FCC)
TB750 25159:918.975   [0][1]: E0040000 CID B105900D PID 000BBD21 DEVARCH 00000000 DEVTYPE 11 Cortex-M33
TB750 25159:919.365 - 185.935ms returns 0x0BE12477
TB750 25159:919.384 JLINK_GetDLLVersion()
TB750 25159:919.396 - 0.018ms returns 76201
TB750 25159:919.410 JLINK_CORE_GetFound()
TB750 25159:919.421 - 0.017ms returns 0xE0200FF
TB750 25159:919.435 JLINK_GetDebugInfo(0x100 = JLINKARM_ROM_TABLE_ADDR_INDEX)
TB750 25159:919.448   Value=0xE00FE000
TB750 25159:919.465 - 0.035ms returns 0
TB750 25159:921.712 JLINK_GetDebugInfo(0x100 = JLINKARM_ROM_TABLE_ADDR_INDEX)
TB750 25159:921.730   Value=0xE00FE000
TB750 25159:921.747 - 0.041ms returns 0
TB750 25159:921.761 JLINK_GetDebugInfo(0x101 = JLINKARM_DEBUG_INFO_ETM_ADDR_INDEX)
TB750 25159:921.773   Value=0x00000000
TB750 25159:921.789 - 0.034ms returns 0
TB750 25159:921.802 JLINK_ReadMemEx(0xE0041FF0, 0x10 Bytes, Flags = 0x02000004)
TB750 25159:921.821   CPU_ReadMem(16 bytes @ 0xE0041FF0)
TB750 25159:922.398   Data:  00 00 00 00 00 00 00 00 00 00 00 00 00 00 00 00
TB750 25159:922.417 - 0.620ms returns 16 (0x10)
TB750 25159:922.431 JLINK_GetDebugInfo(0x102 = JLINKARM_DEBUG_INFO_MTB_ADDR_INDEX)
TB750 25159:922.443   Value=0x00000000
TB750 25159:922.459 - 0.034ms returns 0
TB750 25159:922.472 JLINK_GetDebugInfo(0x103 = JLINKARM_DEBUG_INFO_TPIU_ADDR_INDEX)
TB750 25159:922.484   Value=0x00000000
TB750 25159:922.501 - 0.034ms returns 0
TB750 25159:922.513 JLINK_ReadMemEx(0xE0040FF0, 0x10 Bytes, Flags = 0x02000004)
TB750 25159:922.526   CPU_ReadMem(16 bytes @ 0xE0040FF0)
TB750 25159:923.088   Data:  0D 00 00 00 90 00 00 00 05 00 00 00 B1 00 00 00
TB750 25159:923.106 - 0.599ms returns 16 (0x10)
TB750 25159:923.119 JLINK_GetDebugInfo(0x104 = JLINKARM_DEBUG_INFO_ITM_ADDR_INDEX)
TB750 25159:923.131   Value=0xE0000000
TB750 25159:923.147 - 0.034ms returns 0
TB750 25159:923.160 JLINK_GetDebugInfo(0x105 = JLINKARM_DEBUG_INFO_DWT_ADDR_INDEX)
TB750 25159:923.175   Value=0xE0001000
TB750 25159:923.195 - 0.040ms returns 0
TB750 25159:923.207 JLINK_GetDebugInfo(0x106 = JLINKARM_DEBUG_INFO_FPB_ADDR_INDEX)
TB750 25159:923.218   Value=0xE0002000
TB750 25159:923.235 - 0.034ms returns 0
TB750 25159:923.247 JLINK_GetDebugInfo(0x107 = JLINKARM_DEBUG_INFO_NVIC_ADDR_INDEX)
TB750 25159:923.259   Value=0xE000E000
TB750 25159:923.275 - 0.033ms returns 0
TB750 25159:923.288 JLINK_GetDebugInfo(0x10C = JLINKARM_DEBUG_INFO_DBG_ADDR_INDEX)
TB750 25159:923.299   Value=0xE000EDF0
TB750 25159:923.316 - 0.034ms returns 0
TB750 25159:923.328 JLINK_GetDebugInfo(0x01 = Unknown)
TB750 25159:923.340   Value=0x00000001
TB750 25159:923.357 - 0.034ms returns 0
TB750 25159:923.369 JLINK_ReadMemU32(0xE000ED00, 0x1 Items)
TB750 25159:923.383   CPU_ReadMem(4 bytes @ 0xE000ED00)
TB750 25159:923.855   Data:  14 D2 0F 41
TB750 25159:923.874   Debug reg: CPUID
TB750 25159:923.891 - 0.527ms returns 1 (0x1)
TB750 25159:923.904 JLINK_GetDebugInfo(0x10F = JLINKARM_DEBUG_INFO_HAS_CORTEX_M_SECURITY_EXT_INDEX)
TB750 25159:923.916   Value=0x00000000
TB750 25159:923.933 - 0.034ms returns 0
TB750 25159:923.946 JLINK_HasError()
TB750 25159:923.958 JLINK_SetResetType(JLINKARM_CM3_RESET_TYPE_NORMAL)
TB750 25159:923.971 - 0.018ms returns JLINKARM_CM3_RESET_TYPE_NORMAL
TB750 25159:923.983 JLINK_Reset()
TB750 25159:923.997   CPU is running
TB750 25159:924.015   CPU_WriteMem(4 bytes @ 0xE000EDF0)
TB750 25159:924.598   CPU_ReadMem(4 bytes @ 0xE000ED44)
TB750 25159:925.088   CPU is running
TB750 25159:925.106   CPU_WriteMem(4 bytes @ 0xE000EDFC)
TB750 25159:927.879   Reset: Halt core after reset via DEMCR.VC_CORERESET.
TB750 25159:932.342   Reset: Reset device via AIRCR.SYSRESETREQ.
TB750 25159:932.375   CPU is running
TB750 25159:932.396   CPU_WriteMem(4 bytes @ 0xE000ED0C)
TB750 25159:984.955   CPU_ReadMem(4 bytes @ 0xE000EDF0)
TB750 25159:985.509   CPU_ReadMem(4 bytes @ 0xE000EDF0)
TB750 25159:986.017   CPU is running
TB750 25159:986.041   CPU_WriteMem(4 bytes @ 0xE000EDF0)
TB750 25159:986.604   CPU is running
TB750 25159:986.636   CPU_WriteMem(4 bytes @ 0xE000EDFC)
TB750 25159:993.187   CPU_ReadMem(4 bytes @ 0xE000EDF0)
TB750 25159:997.591   CPU_ReadMem(4 bytes @ 0xE000EE08)
TB750 25159:998.115   CPU_WriteMem(4 bytes @ 0xE0002000)
TB750 25159:998.641   CPU_ReadMem(4 bytes @ 0xE000EDFC)
TB750 25159:999.145   CPU_ReadMem(4 bytes @ 0xE0001000)
TB750 25159:999.660   CPU_ReadMem(4 bytes @ 0xE000EE08)
TB750 25160:000.175 - 76.202ms
TB750 25160:000.199 JLINK_Halt()
TB750 25160:000.214 - 0.124ms returns 0x00
TB750 25160:000.335 JLINK_ReadMemU32(0xE000EDF0, 0x1 Items)
TB750 25160:000.355   CPU_ReadMem(4 bytes @ 0xE000EDF0)
TB750 25160:000.853   Data:  03 00 03 00
TB750 25160:000.887   Debug reg: DHCSR
TB750 25160:000.916 - 0.590ms returns 1 (0x1)
TB750 25160:000.942 JLINK_WriteU32_64(0xE000EDF0, 0xA05F0003)
TB750 25160:000.962   Debug reg: DHCSR
TB750 25160:001.194   CPU_WriteMem(4 bytes @ 0xE000EDF0)
TB750 25160:001.724 - 0.791ms returns 0 (0x00000000)
TB750 25160:001.744 JLINK_WriteU32_64(0xE000EDFC, 0x01000000)
TB750 25160:001.759   Debug reg: DEMCR
TB750 25160:001.783   CPU_WriteMem(4 bytes @ 0xE000EDFC)
TB750 25160:002.272 - 0.536ms returns 0 (0x00000000)
TB750 25160:014.408 JLINK_GetHWStatus(...)
TB750 25160:014.776 - 0.378ms returns 0
TB750 25160:022.139 JLINK_GetNumBPUnits(Type = 0xFFFFFF00)
TB750 25160:022.160 - 0.027ms returns 0x08
TB750 25160:022.174 JLINK_GetNumBPUnits(Type = 0xF0)
TB750 25160:022.185 - 0.018ms returns 0x2000
TB750 25160:022.199 JLINK_GetNumWPUnits()
TB750 25160:022.211 - 0.017ms returns 4
TB750 25160:030.319 JLINK_GetSpeed()
TB750 25160:030.351 - 0.038ms returns 2000
TB750 25160:034.802 JLINK_ReadMemU32(0xE000E004, 0x1 Items)
TB750 25160:034.836   CPU_ReadMem(4 bytes @ 0xE000E004)
TB750 25160:035.369   Data:  02 00 00 00
TB750 25160:035.388 - 0.592ms returns 1 (0x1)
TB750 25160:035.402 JLINK_ReadMemU32(0xE000E004, 0x1 Items)
TB750 25160:035.415   CPU_ReadMem(4 bytes @ 0xE000E004)
TB750 25160:035.888   Data:  02 00 00 00
TB750 25160:035.913 - 0.517ms returns 1 (0x1)
TB750 25160:035.927 JLINK_WriteMemEx(0xE0001000, 0x0000001C Bytes, Flags = 0x02000004)
TB750 25160:035.939   Data:  01 00 00 00 00 00 00 00 00 00 00 00 00 00 00 00 ...
TB750 25160:035.960   CPU_WriteMem(28 bytes @ 0xE0001000)
TB750 25160:036.725 - 0.807ms returns 0x1C
TB750 25160:036.745 JLINK_Halt()
TB750 25160:036.757 - 0.018ms returns 0x00
TB750 25160:036.769 JLINK_IsHalted()
TB750 25160:036.782 - 0.018ms returns TRUE
TB750 25160:039.144 JLINK_WriteMem(0x20000000, 0x1F4 Bytes, ...)
TB750 25160:039.161   Data:  00 BE 0A E0 0D 78 2D 06 68 40 08 24 40 00 00 D3 ...
TB750 25160:039.332   CPU_WriteMem(500 bytes @ 0x20000000)
TB750 25160:043.207 - 4.078ms returns 0x1F4
TB750 25160:043.256 JLINK_HasError()
TB750 25160:043.273 JLINK_WriteReg(R0, 0x08000000)
TB750 25160:043.292   CPU_ReadMem(4 bytes @ 0xE000EE08)
TB750 25160:043.773 - 0.514ms returns 0
TB750 25160:043.798 JLINK_WriteReg(R1, 0x00B71B00)
TB750 25160:043.816 - 0.024ms returns 0
TB750 25160:043.831 JLINK_WriteReg(R2, 0x00000001)
TB750 25160:043.847 - 0.022ms returns 0
TB750 25160:043.862 JLINK_WriteReg(R3, 0x00000000)
TB750 25160:043.877 - 0.022ms returns 0
TB750 25160:043.892 JLINK_WriteReg(R4, 0x00000000)
TB750 25160:043.907 - 0.021ms returns 0
TB750 25160:043.922 JLINK_WriteReg(R5, 0x00000000)
TB750 25160:043.936 - 0.021ms returns 0
TB750 25160:043.951 JLINK_WriteReg(R6, 0x00000000)
TB750 25160:043.966 - 0.021ms returns 0
TB750 25160:043.981 JLINK_WriteReg(R7, 0x00000000)
TB750 25160:043.995 - 0.022ms returns 0
TB750 25160:044.011 JLINK_WriteReg(R8, 0x00000000)
TB750 25160:044.025 - 0.021ms returns 0
TB750 25160:044.040 JLINK_WriteReg(R9, 0x200001F0)
TB750 25160:044.055 - 0.021ms returns 0
TB750 25160:044.070 JLINK_WriteReg(R10, 0x00000000)
TB750 25160:044.084 - 0.021ms returns 0
TB750 25160:044.099 JLINK_WriteReg(R11, 0x00000000)
TB750 25160:044.114 - 0.021ms returns 0
TB750 25160:044.129 JLINK_WriteReg(R12, 0x00000000)
TB750 25160:044.143 - 0.021ms returns 0
TB750 25160:044.158 JLINK_WriteReg(R13 (SP), 0x20000800)
TB750 25160:044.174 - 0.023ms returns 0
TB750 25160:044.189 JLINK_WriteReg(R14, 0x20000001)
TB750 25160:044.205 - 0.023ms returns 0
TB750 25160:044.220 JLINK_WriteReg(R15 (PC), 0x20000038)
TB750 25160:044.235 - 0.021ms returns 0
TB750 25160:044.250 JLINK_WriteReg(XPSR, 0x01000000)
TB750 25160:044.264 - 0.021ms returns 0
TB750 25160:044.279 JLINK_WriteReg(MSP, 0x20000800)
TB750 25160:044.294 - 0.021ms returns 0
TB750 25160:044.309 JLINK_WriteReg(PSP, 0x20000800)
TB750 25160:044.324 - 0.021ms returns 0
TB750 25160:044.339 JLINK_WriteReg(CFBP, 0x00000000)
TB750 25160:044.353 - 0.021ms returns 0
TB750 25160:044.368 JLINK_SetBPEx(Addr = 0x20000000, Type = 0xFFFFFFF2)
TB750 25160:044.384 - 0.022ms returns 0x00000001
TB750 25160:044.399 JLINK_Go()
TB750 25160:044.416   CPU_WriteMem(4 bytes @ 0xE0002000)
TB750 25160:044.940   CPU_ReadMem(4 bytes @ 0xE0001000)
TB750 25160:045.437   CPU_WriteMem(4 bytes @ 0xE0002008)
TB750 25160:045.456   CPU_WriteMem(4 bytes @ 0xE000200C)
TB750 25160:045.474   CPU_WriteMem(4 bytes @ 0xE0002010)
TB750 25160:045.491   CPU_WriteMem(4 bytes @ 0xE0002014)
TB750 25160:045.509   CPU_WriteMem(4 bytes @ 0xE0002018)
TB750 25160:045.526   CPU_WriteMem(4 bytes @ 0xE000201C)
TB750 25160:045.543   CPU_WriteMem(4 bytes @ 0xE0002020)
TB750 25160:045.560   CPU_WriteMem(4 bytes @ 0xE0002024)
TB750 25160:047.633   CPU_WriteMem(4 bytes @ 0xE0001004)
TB750 25160:051.492 - 7.114ms
TB750 25160:051.529 JLINK_IsHalted()
TB750 25160:055.476 - 3.966ms returns TRUE
TB750 25160:055.512 JLINK_ReadReg(R15 (PC))
TB750 25160:055.537   CPU_ReadMem(4 bytes @ 0xE000EE08)
TB750 25160:056.068 - 0.569ms returns 0x20000000
TB750 25160:056.094 JLINK_ClrBPEx(BPHandle = 0x00000001)
TB750 25160:056.111 - 0.025ms returns 0x00
TB750 25160:056.129 JLINK_ReadReg(R0)
TB750 25160:056.147 - 0.025ms returns 0x00000000
TB750 25160:057.170 JLINK_HasError()
TB750 25160:057.191 JLINK_WriteReg(R0, 0x08000000)
TB750 25160:057.209 - 0.024ms returns 0
TB750 25160:057.280 JLINK_WriteReg(R1, 0x00B71B00)
TB750 25160:057.298 - 0.025ms returns 0
TB750 25160:057.313 JLINK_WriteReg(R2, 0x00000001)
TB750 25160:057.327 - 0.020ms returns 0
TB750 25160:057.341 JLINK_WriteReg(R3, 0x00000000)
TB750 25160:057.355 - 0.020ms returns 0
TB750 25160:057.369 JLINK_WriteReg(R4, 0x00000000)
TB750 25160:057.384 - 0.021ms returns 0
TB750 25160:057.398 JLINK_WriteReg(R5, 0x00000000)
TB750 25160:057.412 - 0.020ms returns 0
TB750 25160:057.426 JLINK_WriteReg(R6, 0x00000000)
TB750 25160:057.440 - 0.020ms returns 0
TB750 25160:057.454 JLINK_WriteReg(R7, 0x00000000)
TB750 25160:057.468 - 0.020ms returns 0
TB750 25160:057.482 JLINK_WriteReg(R8, 0x00000000)
TB750 25160:057.496 - 0.020ms returns 0
TB750 25160:057.510 JLINK_WriteReg(R9, 0x200001F0)
TB750 25160:057.524 - 0.020ms returns 0
TB750 25160:057.539 JLINK_WriteReg(R10, 0x00000000)
TB750 25160:057.553 - 0.021ms returns 0
TB750 25160:057.568 JLINK_WriteReg(R11, 0x00000000)
TB750 25160:057.582 - 0.021ms returns 0
TB750 25160:057.597 JLINK_WriteReg(R12, 0x00000000)
TB750 25160:057.611 - 0.021ms returns 0
TB750 25160:057.626 JLINK_WriteReg(R13 (SP), 0x20000800)
TB750 25160:057.641 - 0.022ms returns 0
TB750 25160:057.655 JLINK_WriteReg(R14, 0x20000001)
TB750 25160:057.670 - 0.021ms returns 0
TB750 25160:057.684 JLINK_WriteReg(R15 (PC), 0x200000A4)
TB750 25160:057.699 - 0.021ms returns 0
TB750 25160:057.713 JLINK_WriteReg(XPSR, 0x01000000)
TB750 25160:057.728 - 0.021ms returns 0
TB750 25160:057.742 JLINK_WriteReg(MSP, 0x20000800)
TB750 25160:057.757 - 0.021ms returns 0
TB750 25160:057.771 JLINK_WriteReg(PSP, 0x20000800)
TB750 25160:057.785 - 0.021ms returns 0
TB750 25160:057.800 JLINK_WriteReg(CFBP, 0x00000000)
TB750 25160:057.814 - 0.021ms returns 0
TB750 25160:057.829 JLINK_SetBPEx(Addr = 0x20000000, Type = 0xFFFFFFF2)
TB750 25160:057.844 - 0.021ms returns 0x00000002
TB750 25160:057.859 JLINK_Go()
TB750 25160:057.876   CPU_WriteMem(4 bytes @ 0xE0002000)
TB750 25160:058.408   CPU_ReadMem(4 bytes @ 0xE0001000)
TB750 25160:062.214 - 4.368ms
TB750 25160:062.239 JLINK_IsHalted()
TB750 25160:062.726 - 0.496ms returns FALSE
TB750 25160:062.747 JLINK_HasError()
TB750 25160:082.215 JLINK_IsHalted()
TB750 25160:086.131 - 3.932ms returns TRUE
TB750 25160:086.159 JLINK_ReadReg(R15 (PC))
TB750 25160:086.179   CPU_ReadMem(4 bytes @ 0xE000EE08)
TB750 25160:086.708 - 0.556ms returns 0x20000000
TB750 25160:086.724 JLINK_ClrBPEx(BPHandle = 0x00000002)
TB750 25160:086.737 - 0.018ms returns 0x00
TB750 25160:086.750 JLINK_ReadReg(R0)
TB750 25160:086.762 - 0.018ms returns 0x00000000
TB750 25160:138.764 JLINK_HasError()
TB750 25160:138.801 JLINK_WriteReg(R0, 0x00000001)
TB750 25160:138.821 - 0.025ms returns 0
TB750 25160:138.835 JLINK_WriteReg(R1, 0x00B71B00)
TB750 25160:138.848 - 0.018ms returns 0
TB750 25160:138.861 JLINK_WriteReg(R2, 0x00000001)
TB750 25160:138.873 - 0.018ms returns 0
TB750 25160:138.885 JLINK_WriteReg(R3, 0x00000000)
TB750 25160:138.897 - 0.017ms returns 0
TB750 25160:138.910 JLINK_WriteReg(R4, 0x00000000)
TB750 25160:138.921 - 0.017ms returns 0
TB750 25160:138.934 JLINK_WriteReg(R5, 0x00000000)
TB750 25160:138.945 - 0.017ms returns 0
TB750 25160:138.958 JLINK_WriteReg(R6, 0x00000000)
TB750 25160:138.970 - 0.017ms returns 0
TB750 25160:138.982 JLINK_WriteReg(R7, 0x00000000)
TB750 25160:138.994 - 0.017ms returns 0
TB750 25160:139.006 JLINK_WriteReg(R8, 0x00000000)
TB750 25160:139.018 - 0.017ms returns 0
TB750 25160:139.030 JLINK_WriteReg(R9, 0x200001F0)
TB750 25160:139.042 - 0.017ms returns 0
TB750 25160:139.054 JLINK_WriteReg(R10, 0x00000000)
TB750 25160:139.066 - 0.017ms returns 0
TB750 25160:139.078 JLINK_WriteReg(R11, 0x00000000)
TB750 25160:139.090 - 0.017ms returns 0
TB750 25160:139.103 JLINK_WriteReg(R12, 0x00000000)
TB750 25160:139.115 - 0.018ms returns 0
TB750 25160:139.127 JLINK_WriteReg(R13 (SP), 0x20000800)
TB750 25160:139.140 - 0.018ms returns 0
TB750 25160:139.152 JLINK_WriteReg(R14, 0x20000001)
TB750 25160:139.164 - 0.017ms returns 0
TB750 25160:139.188 JLINK_WriteReg(R15 (PC), 0x20000090)
TB750 25160:139.202 - 0.020ms returns 0
TB750 25160:139.215 JLINK_WriteReg(XPSR, 0x01000000)
TB750 25160:139.227 - 0.018ms returns 0
TB750 25160:139.239 JLINK_WriteReg(MSP, 0x20000800)
TB750 25160:139.251 - 0.017ms returns 0
TB750 25160:139.263 JLINK_WriteReg(PSP, 0x20000800)
TB750 25160:139.275 - 0.017ms returns 0
TB750 25160:139.288 JLINK_WriteReg(CFBP, 0x00000000)
TB750 25160:139.300 - 0.017ms returns 0
TB750 25160:139.312 JLINK_SetBPEx(Addr = 0x20000000, Type = 0xFFFFFFF2)
TB750 25160:139.326 - 0.019ms returns 0x00000003
TB750 25160:139.338 JLINK_Go()
TB750 25160:139.353   CPU_WriteMem(4 bytes @ 0xE0002000)
TB750 25160:139.878   CPU_ReadMem(4 bytes @ 0xE0001000)
TB750 25160:143.642 - 4.322ms
TB750 25160:143.672 JLINK_IsHalted()
TB750 25160:147.459 - 3.803ms returns TRUE
TB750 25160:147.486 JLINK_ReadReg(R15 (PC))
TB750 25160:147.503   CPU_ReadMem(4 bytes @ 0xE000EE08)
TB750 25160:147.974 - 0.496ms returns 0x20000000
TB750 25160:147.989 JLINK_ClrBPEx(BPHandle = 0x00000003)
TB750 25160:148.002 - 0.018ms returns 0x00
TB750 25160:148.014 JLINK_ReadReg(R0)
TB750 25160:148.027 - 0.018ms returns 0x00000000
TB750 25160:153.090 JLINK_WriteMem(0x20000000, 0x1F4 Bytes, ...)
TB750 25160:153.114   Data:  00 BE 0A E0 0D 78 2D 06 68 40 08 24 40 00 00 D3 ...
TB750 25160:153.145   CPU_WriteMem(500 bytes @ 0x20000000)
TB750 25160:157.023 - 3.951ms returns 0x1F4
TB750 25160:157.093 JLINK_HasError()
TB750 25160:157.112 JLINK_WriteReg(R0, 0x08000000)
TB750 25160:157.133 - 0.027ms returns 0
TB750 25160:157.148 JLINK_WriteReg(R1, 0x00B71B00)
TB750 25160:157.163 - 0.022ms returns 0
TB750 25160:157.179 JLINK_WriteReg(R2, 0x00000002)
TB750 25160:157.193 - 0.021ms returns 0
TB750 25160:157.208 JLINK_WriteReg(R3, 0x00000000)
TB750 25160:157.223 - 0.021ms returns 0
TB750 25160:157.238 JLINK_WriteReg(R4, 0x00000000)
TB750 25160:157.253 - 0.021ms returns 0
TB750 25160:157.267 JLINK_WriteReg(R5, 0x00000000)
TB750 25160:157.282 - 0.021ms returns 0
TB750 25160:157.297 JLINK_WriteReg(R6, 0x00000000)
TB750 25160:157.311 - 0.021ms returns 0
TB750 25160:157.326 JLINK_WriteReg(R7, 0x00000000)
TB750 25160:157.341 - 0.022ms returns 0
TB750 25160:157.356 JLINK_WriteReg(R8, 0x00000000)
TB750 25160:157.371 - 0.021ms returns 0
TB750 25160:157.386 JLINK_WriteReg(R9, 0x200001F0)
TB750 25160:157.400 - 0.022ms returns 0
TB750 25160:157.416 JLINK_WriteReg(R10, 0x00000000)
TB750 25160:157.430 - 0.021ms returns 0
TB750 25160:157.445 JLINK_WriteReg(R11, 0x00000000)
TB750 25160:157.460 - 0.021ms returns 0
TB750 25160:157.475 JLINK_WriteReg(R12, 0x00000000)
TB750 25160:157.489 - 0.021ms returns 0
TB750 25160:157.504 JLINK_WriteReg(R13 (SP), 0x20000800)
TB750 25160:157.520 - 0.022ms returns 0
TB750 25160:157.535 JLINK_WriteReg(R14, 0x20000001)
TB750 25160:157.550 - 0.022ms returns 0
TB750 25160:157.565 JLINK_WriteReg(R15 (PC), 0x20000038)
TB750 25160:157.580 - 0.022ms returns 0
TB750 25160:157.595 JLINK_WriteReg(XPSR, 0x01000000)
TB750 25160:157.610 - 0.021ms returns 0
TB750 25160:157.625 JLINK_WriteReg(MSP, 0x20000800)
TB750 25160:157.639 - 0.021ms returns 0
TB750 25160:157.654 JLINK_WriteReg(PSP, 0x20000800)
TB750 25160:157.669 - 0.021ms returns 0
TB750 25160:157.684 JLINK_WriteReg(CFBP, 0x00000000)
TB750 25160:157.698 - 0.021ms returns 0
TB750 25160:157.713 JLINK_SetBPEx(Addr = 0x20000000, Type = 0xFFFFFFF2)
TB750 25160:157.729 - 0.022ms returns 0x00000004
TB750 25160:157.742 JLINK_Go()
TB750 25160:157.757   CPU_WriteMem(4 bytes @ 0xE0002000)
TB750 25160:158.304   CPU_ReadMem(4 bytes @ 0xE0001000)
TB750 25160:162.125 - 4.393ms
TB750 25160:162.146 JLINK_IsHalted()
TB750 25160:165.957 - 3.829ms returns TRUE
TB750 25160:165.986 JLINK_ReadReg(R15 (PC))
TB750 25160:166.003   CPU_ReadMem(4 bytes @ 0xE000EE08)
TB750 25160:166.502 - 0.529ms returns 0x20000000
TB750 25160:166.526 JLINK_ClrBPEx(BPHandle = 0x00000004)
TB750 25160:166.540 - 0.020ms returns 0x00
TB750 25160:166.553 JLINK_ReadReg(R0)
TB750 25160:166.566 - 0.019ms returns 0x00000000
TB750 25160:166.872 JLINK_WriteMem(0x200001F8, 0x208 Bytes, ...)
TB750 25160:166.892   Data:  58 0A 00 20 B5 01 00 08 CD 0C 00 08 9D 08 00 08 ...
TB750 25160:166.916   CPU_WriteMem(520 bytes @ 0x200001F8)
TB750 25160:170.949 - 4.096ms returns 0x208
TB750 25160:170.982 JLINK_WriteMem(0x20000400, 0x1F8 Bytes, ...)
TB750 25160:170.997   Data:  94 E8 07 00 98 47 10 34 AC 42 F6 D3 FF F7 C8 FF ...
TB750 25160:171.035   CPU_WriteMem(504 bytes @ 0x20000400)
TB750 25160:174.973 - 4.008ms returns 0x1F8
TB750 25160:175.002 JLINK_HasError()
TB750 25160:175.020 JLINK_WriteReg(R0, 0x08000000)
TB750 25160:175.039 - 0.026ms returns 0
TB750 25160:175.054 JLINK_WriteReg(R1, 0x00000400)
TB750 25160:175.069 - 0.022ms returns 0
TB750 25160:175.084 JLINK_WriteReg(R2, 0x200001F8)
TB750 25160:175.099 - 0.021ms returns 0
TB750 25160:175.114 JLINK_WriteReg(R3, 0x00000000)
TB750 25160:175.128 - 0.022ms returns 0
TB750 25160:175.144 JLINK_WriteReg(R4, 0x00000000)
TB750 25160:175.158 - 0.021ms returns 0
TB750 25160:175.173 JLINK_WriteReg(R5, 0x00000000)
TB750 25160:175.188 - 0.022ms returns 0
TB750 25160:175.203 JLINK_WriteReg(R6, 0x00000000)
TB750 25160:175.218 - 0.021ms returns 0
TB750 25160:175.233 JLINK_WriteReg(R7, 0x00000000)
TB750 25160:175.247 - 0.021ms returns 0
TB750 25160:175.262 JLINK_WriteReg(R8, 0x00000000)
TB750 25160:175.277 - 0.022ms returns 0
TB750 25160:175.292 JLINK_WriteReg(R9, 0x200001F0)
TB750 25160:175.306 - 0.021ms returns 0
TB750 25160:175.321 JLINK_WriteReg(R10, 0x00000000)
TB750 25160:175.336 - 0.021ms returns 0
TB750 25160:175.351 JLINK_WriteReg(R11, 0x00000000)
TB750 25160:175.365 - 0.021ms returns 0
TB750 25160:175.380 JLINK_WriteReg(R12, 0x00000000)
TB750 25160:175.395 - 0.021ms returns 0
TB750 25160:175.410 JLINK_WriteReg(R13 (SP), 0x20000800)
TB750 25160:175.425 - 0.022ms returns 0
TB750 25160:175.440 JLINK_WriteReg(R14, 0x20000001)
TB750 25160:175.455 - 0.021ms returns 0
TB750 25160:175.470 JLINK_WriteReg(R15 (PC), 0x2000017C)
TB750 25160:175.484 - 0.022ms returns 0
TB750 25160:175.499 JLINK_WriteReg(XPSR, 0x01000000)
TB750 25160:175.514 - 0.021ms returns 0
TB750 25160:175.529 JLINK_WriteReg(MSP, 0x20000800)
TB750 25160:175.544 - 0.021ms returns 0
TB750 25160:175.559 JLINK_WriteReg(PSP, 0x20000800)
TB750 25160:175.574 - 0.022ms returns 0
TB750 25160:175.589 JLINK_WriteReg(CFBP, 0x00000000)
TB750 25160:175.604 - 0.021ms returns 0
TB750 25160:175.619 JLINK_SetBPEx(Addr = 0x20000000, Type = 0xFFFFFFF2)
TB750 25160:175.634 - 0.022ms returns 0x00000005
TB750 25160:175.649 JLINK_Go()
TB750 25160:175.666   CPU_WriteMem(4 bytes @ 0xE0002000)
TB750 25160:176.184   CPU_ReadMem(4 bytes @ 0xE0001000)
TB750 25160:180.005 - 4.366ms
TB750 25160:180.025 JLINK_IsHalted()
TB750 25160:180.506 - 0.497ms returns FALSE
TB750 25160:180.534 JLINK_HasError()
TB750 25160:188.854 JLINK_IsHalted()
TB750 25160:189.440 - 0.596ms returns FALSE
TB750 25160:189.460 JLINK_HasError()
TB750 25160:190.875 JLINK_IsHalted()
TB750 25160:191.396 - 0.529ms returns FALSE
TB750 25160:191.413 JLINK_HasError()
TB750 25160:194.851 JLINK_IsHalted()
TB750 25160:198.693 - 3.858ms returns TRUE
TB750 25160:198.721 JLINK_ReadReg(R15 (PC))
TB750 25160:198.742   CPU_ReadMem(4 bytes @ 0xE000EE08)
TB750 25160:199.258 - 0.544ms returns 0x20000000
TB750 25160:199.274 JLINK_ClrBPEx(BPHandle = 0x00000005)
TB750 25160:199.287 - 0.019ms returns 0x00
TB750 25160:199.300 JLINK_ReadReg(R0)
TB750 25160:199.313 - 0.018ms returns 0x00000000
TB750 25160:199.725 JLINK_WriteMem(0x200001F8, 0x208 Bytes, ...)
TB750 25160:199.742   Data:  40 F2 29 10 C2 F2 00 00 01 79 40 79 40 EA 01 20 ...
TB750 25160:199.766   CPU_WriteMem(520 bytes @ 0x200001F8)
TB750 25160:203.748 - 4.034ms returns 0x208
TB750 25160:203.770 JLINK_WriteMem(0x20000400, 0x1F8 Bytes, ...)
TB750 25160:203.782   Data:  08 21 00 F0 BD F8 00 E0 FF E7 04 B0 80 BD 00 00 ...
TB750 25160:203.804   CPU_WriteMem(504 bytes @ 0x20000400)
TB750 25160:207.708 - 3.951ms returns 0x1F8
TB750 25160:207.734 JLINK_HasError()
TB750 25160:207.752 JLINK_WriteReg(R0, 0x08000400)
TB750 25160:207.775 - 0.031ms returns 0
TB750 25160:207.793 JLINK_WriteReg(R1, 0x00000400)
TB750 25160:207.808 - 0.022ms returns 0
TB750 25160:207.824 JLINK_WriteReg(R2, 0x200001F8)
TB750 25160:207.839 - 0.021ms returns 0
TB750 25160:207.856 JLINK_WriteReg(R3, 0x00000000)
TB750 25160:207.870 - 0.021ms returns 0
TB750 25160:207.886 JLINK_WriteReg(R4, 0x00000000)
TB750 25160:207.901 - 0.021ms returns 0
TB750 25160:207.916 JLINK_WriteReg(R5, 0x00000000)
TB750 25160:207.931 - 0.021ms returns 0
TB750 25160:207.947 JLINK_WriteReg(R6, 0x00000000)
TB750 25160:207.962 - 0.021ms returns 0
TB750 25160:207.977 JLINK_WriteReg(R7, 0x00000000)
TB750 25160:207.992 - 0.022ms returns 0
TB750 25160:208.008 JLINK_WriteReg(R8, 0x00000000)
TB750 25160:208.023 - 0.021ms returns 0
TB750 25160:208.039 JLINK_WriteReg(R9, 0x200001F0)
TB750 25160:208.053 - 0.021ms returns 0
TB750 25160:208.069 JLINK_WriteReg(R10, 0x00000000)
TB750 25160:208.083 - 0.021ms returns 0
TB750 25160:208.099 JLINK_WriteReg(R11, 0x00000000)
TB750 25160:208.114 - 0.021ms returns 0
TB750 25160:208.129 JLINK_WriteReg(R12, 0x00000000)
TB750 25160:208.144 - 0.021ms returns 0
TB750 25160:208.160 JLINK_WriteReg(R13 (SP), 0x20000800)
TB750 25160:208.175 - 0.022ms returns 0
TB750 25160:208.191 JLINK_WriteReg(R14, 0x20000001)
TB750 25160:208.206 - 0.021ms returns 0
TB750 25160:208.221 JLINK_WriteReg(R15 (PC), 0x2000017C)
TB750 25160:208.236 - 0.021ms returns 0
TB750 25160:208.252 JLINK_WriteReg(XPSR, 0x01000000)
TB750 25160:208.266 - 0.021ms returns 0
TB750 25160:208.282 JLINK_WriteReg(MSP, 0x20000800)
TB750 25160:208.296 - 0.021ms returns 0
TB750 25160:208.312 JLINK_WriteReg(PSP, 0x20000800)
TB750 25160:208.327 - 0.021ms returns 0
TB750 25160:208.342 JLINK_WriteReg(CFBP, 0x00000000)
TB750 25160:208.357 - 0.021ms returns 0
TB750 25160:208.372 JLINK_SetBPEx(Addr = 0x20000000, Type = 0xFFFFFFF2)
TB750 25160:208.388 - 0.022ms returns 0x00000006
TB750 25160:208.404 JLINK_Go()
TB750 25160:208.420   CPU_WriteMem(4 bytes @ 0xE0002000)
TB750 25160:208.932   CPU_ReadMem(4 bytes @ 0xE0001000)
TB750 25160:212.739 - 4.347ms
TB750 25160:212.763 JLINK_IsHalted()
TB750 25160:213.264 - 0.516ms returns FALSE
TB750 25160:213.291 JLINK_HasError()
TB750 25160:218.860 JLINK_IsHalted()
TB750 25160:219.389 - 0.538ms returns FALSE
TB750 25160:219.408 JLINK_HasError()
TB750 25160:220.854 JLINK_IsHalted()
TB750 25160:221.362 - 0.516ms returns FALSE
TB750 25160:221.380 JLINK_HasError()
TB750 25160:222.854 JLINK_IsHalted()
TB750 25160:223.386 - 0.539ms returns FALSE
TB750 25160:223.403 JLINK_HasError()
TB750 25160:224.857 JLINK_IsHalted()
TB750 25160:228.678 - 3.831ms returns TRUE
TB750 25160:228.698 JLINK_ReadReg(R15 (PC))
TB750 25160:228.716   CPU_ReadMem(4 bytes @ 0xE000EE08)
TB750 25160:229.208 - 0.521ms returns 0x20000000
TB750 25160:229.229 JLINK_ClrBPEx(BPHandle = 0x00000006)
TB750 25160:229.244 - 0.023ms returns 0x00
TB750 25160:229.260 JLINK_ReadReg(R0)
TB750 25160:229.275 - 0.022ms returns 0x00000000
TB750 25160:230.014 JLINK_WriteMem(0x200001F8, 0x208 Bytes, ...)
TB750 25160:230.034   Data:  01 F0 48 FF 08 B9 FF E7 F4 E7 01 20 00 F0 1A F8 ...
TB750 25160:230.058   CPU_WriteMem(520 bytes @ 0x200001F8)
TB750 25160:234.076 - 4.076ms returns 0x208
TB750 25160:234.100 JLINK_WriteMem(0x20000400, 0x1F8 Bytes, ...)
TB750 25160:234.112   Data:  00 00 00 78 B0 B9 FF E7 40 F6 00 40 C4 F2 01 00 ...
TB750 25160:234.136   CPU_WriteMem(504 bytes @ 0x20000400)
TB750 25160:238.018 - 3.928ms returns 0x1F8
TB750 25160:238.040 JLINK_HasError()
TB750 25160:238.057 JLINK_WriteReg(R0, 0x08000800)
TB750 25160:238.076 - 0.026ms returns 0
TB750 25160:238.092 JLINK_WriteReg(R1, 0x00000400)
TB750 25160:238.107 - 0.022ms returns 0
TB750 25160:238.123 JLINK_WriteReg(R2, 0x200001F8)
TB750 25160:238.138 - 0.021ms returns 0
TB750 25160:238.154 JLINK_WriteReg(R3, 0x00000000)
TB750 25160:238.168 - 0.021ms returns 0
TB750 25160:238.184 JLINK_WriteReg(R4, 0x00000000)
TB750 25160:238.198 - 0.021ms returns 0
TB750 25160:238.214 JLINK_WriteReg(R5, 0x00000000)
TB750 25160:238.279 - 0.075ms returns 0
TB750 25160:238.298 JLINK_WriteReg(R6, 0x00000000)
TB750 25160:238.313 - 0.021ms returns 0
TB750 25160:238.329 JLINK_WriteReg(R7, 0x00000000)
TB750 25160:238.344 - 0.021ms returns 0
TB750 25160:238.359 JLINK_WriteReg(R8, 0x00000000)
TB750 25160:238.374 - 0.021ms returns 0
TB750 25160:238.390 JLINK_WriteReg(R9, 0x200001F0)
TB750 25160:238.404 - 0.021ms returns 0
TB750 25160:238.420 JLINK_WriteReg(R10, 0x00000000)
TB750 25160:238.435 - 0.021ms returns 0
TB750 25160:238.450 JLINK_WriteReg(R11, 0x00000000)
TB750 25160:238.465 - 0.022ms returns 0
TB750 25160:238.481 JLINK_WriteReg(R12, 0x00000000)
TB750 25160:238.496 - 0.021ms returns 0
TB750 25160:238.511 JLINK_WriteReg(R13 (SP), 0x20000800)
TB750 25160:238.527 - 0.022ms returns 0
TB750 25160:238.543 JLINK_WriteReg(R14, 0x20000001)
TB750 25160:238.557 - 0.022ms returns 0
TB750 25160:238.573 JLINK_WriteReg(R15 (PC), 0x2000017C)
TB750 25160:238.588 - 0.021ms returns 0
TB750 25160:238.604 JLINK_WriteReg(XPSR, 0x01000000)
TB750 25160:238.619 - 0.022ms returns 0
TB750 25160:238.634 JLINK_WriteReg(MSP, 0x20000800)
TB750 25160:238.649 - 0.021ms returns 0
TB750 25160:238.664 JLINK_WriteReg(PSP, 0x20000800)
TB750 25160:238.679 - 0.021ms returns 0
TB750 25160:238.695 JLINK_WriteReg(CFBP, 0x00000000)
TB750 25160:238.709 - 0.021ms returns 0
TB750 25160:238.725 JLINK_SetBPEx(Addr = 0x20000000, Type = 0xFFFFFFF2)
TB750 25160:238.741 - 0.022ms returns 0x00000007
TB750 25160:238.756 JLINK_Go()
TB750 25160:238.773   CPU_WriteMem(4 bytes @ 0xE0002000)
TB750 25160:239.366   CPU_ReadMem(4 bytes @ 0xE0001000)
TB750 25160:243.246 - 4.502ms
TB750 25160:243.269 JLINK_IsHalted()
TB750 25160:243.743 - 0.480ms returns FALSE
TB750 25160:243.758 JLINK_HasError()
TB750 25160:248.882 JLINK_IsHalted()
TB750 25160:249.493 - 0.627ms returns FALSE
TB750 25160:249.520 JLINK_HasError()
TB750 25160:250.869 JLINK_IsHalted()
TB750 25160:251.425 - 0.572ms returns FALSE
TB750 25160:251.452 JLINK_HasError()
TB750 25160:256.870 JLINK_IsHalted()
TB750 25160:260.773 - 3.921ms returns TRUE
TB750 25160:260.802 JLINK_ReadReg(R15 (PC))
TB750 25160:260.822   CPU_ReadMem(4 bytes @ 0xE000EE08)
TB750 25160:261.367 - 0.576ms returns 0x20000000
TB750 25160:261.389 JLINK_ClrBPEx(BPHandle = 0x00000007)
TB750 25160:261.404 - 0.022ms returns 0x00
TB750 25160:261.420 JLINK_ReadReg(R0)
TB750 25160:261.435 - 0.023ms returns 0x00000000
TB750 25160:261.945 JLINK_WriteMem(0x200001F8, 0x208 Bytes, ...)
TB750 25160:261.963   Data:  00 01 00 20 08 70 FF E7 FF E7 FF E7 41 F2 00 40 ...
TB750 25160:261.987   CPU_WriteMem(520 bytes @ 0x200001F8)
TB750 25160:266.067 - 4.134ms returns 0x208
TB750 25160:266.090 JLINK_WriteMem(0x20000400, 0x1F8 Bytes, ...)
TB750 25160:266.105   Data:  FA 7F 27 DB FF E7 40 F2 4A 51 C2 F2 00 01 00 20 ...
TB750 25160:266.131   CPU_WriteMem(504 bytes @ 0x20000400)
TB750 25160:270.000 - 3.919ms returns 0x1F8
TB750 25160:270.021 JLINK_HasError()
TB750 25160:270.039 JLINK_WriteReg(R0, 0x08000C00)
TB750 25160:270.056 - 0.025ms returns 0
TB750 25160:270.072 JLINK_WriteReg(R1, 0x00000400)
TB750 25160:270.088 - 0.022ms returns 0
TB750 25160:270.103 JLINK_WriteReg(R2, 0x200001F8)
TB750 25160:270.118 - 0.021ms returns 0
TB750 25160:270.133 JLINK_WriteReg(R3, 0x00000000)
TB750 25160:270.148 - 0.021ms returns 0
TB750 25160:270.164 JLINK_WriteReg(R4, 0x00000000)
TB750 25160:270.178 - 0.021ms returns 0
TB750 25160:270.194 JLINK_WriteReg(R5, 0x00000000)
TB750 25160:270.208 - 0.021ms returns 0
TB750 25160:270.224 JLINK_WriteReg(R6, 0x00000000)
TB750 25160:270.239 - 0.021ms returns 0
TB750 25160:270.254 JLINK_WriteReg(R7, 0x00000000)
TB750 25160:270.269 - 0.021ms returns 0
TB750 25160:270.284 JLINK_WriteReg(R8, 0x00000000)
TB750 25160:270.299 - 0.021ms returns 0
TB750 25160:270.314 JLINK_WriteReg(R9, 0x200001F0)
TB750 25160:270.329 - 0.021ms returns 0
TB750 25160:270.345 JLINK_WriteReg(R10, 0x00000000)
TB750 25160:270.359 - 0.021ms returns 0
TB750 25160:270.375 JLINK_WriteReg(R11, 0x00000000)
TB750 25160:270.441 - 0.076ms returns 0
TB750 25160:270.461 JLINK_WriteReg(R12, 0x00000000)
TB750 25160:270.476 - 0.021ms returns 0
TB750 25160:270.492 JLINK_WriteReg(R13 (SP), 0x20000800)
TB750 25160:270.507 - 0.022ms returns 0
TB750 25160:270.523 JLINK_WriteReg(R14, 0x20000001)
TB750 25160:270.538 - 0.021ms returns 0
TB750 25160:270.553 JLINK_WriteReg(R15 (PC), 0x2000017C)
TB750 25160:270.568 - 0.021ms returns 0
TB750 25160:270.584 JLINK_WriteReg(XPSR, 0x01000000)
TB750 25160:270.598 - 0.021ms returns 0
TB750 25160:270.614 JLINK_WriteReg(MSP, 0x20000800)
TB750 25160:270.629 - 0.022ms returns 0
TB750 25160:270.645 JLINK_WriteReg(PSP, 0x20000800)
TB750 25160:270.659 - 0.021ms returns 0
TB750 25160:270.675 JLINK_WriteReg(CFBP, 0x00000000)
TB750 25160:270.689 - 0.021ms returns 0
TB750 25160:270.705 JLINK_SetBPEx(Addr = 0x20000000, Type = 0xFFFFFFF2)
TB750 25160:270.720 - 0.022ms returns 0x00000008
TB750 25160:270.736 JLINK_Go()
TB750 25160:270.753   CPU_WriteMem(4 bytes @ 0xE0002000)
TB750 25160:271.257   CPU_ReadMem(4 bytes @ 0xE0001000)
TB750 25160:275.034 - 4.314ms
TB750 25160:275.062 JLINK_IsHalted()
TB750 25160:275.590 - 0.536ms returns FALSE
TB750 25160:275.609 JLINK_HasError()
TB750 25160:278.871 JLINK_IsHalted()
TB750 25160:279.430 - 0.570ms returns FALSE
TB750 25160:279.451 JLINK_HasError()
TB750 25160:281.870 JLINK_IsHalted()
TB750 25160:282.369 - 0.508ms returns FALSE
TB750 25160:282.387 JLINK_HasError()
TB750 25160:283.872 JLINK_IsHalted()
TB750 25160:284.379 - 0.515ms returns FALSE
TB750 25160:284.396 JLINK_HasError()
TB750 25160:286.375 JLINK_IsHalted()
TB750 25160:286.878 - 0.511ms returns FALSE
TB750 25160:286.895 JLINK_HasError()
TB750 25160:290.376 JLINK_IsHalted()
TB750 25160:294.233 - 3.871ms returns TRUE
TB750 25160:294.261 JLINK_ReadReg(R15 (PC))
TB750 25160:294.286   CPU_ReadMem(4 bytes @ 0xE000EE08)
TB750 25160:294.798 - 0.549ms returns 0x20000000
TB750 25160:294.823 JLINK_ClrBPEx(BPHandle = 0x00000008)
TB750 25160:294.844 - 0.031ms returns 0x00
TB750 25160:294.866 JLINK_ReadReg(R0)
TB750 25160:294.888 - 0.031ms returns 0x00000000
TB750 25160:295.399 JLINK_WriteMem(0x200001F8, 0x208 Bytes, ...)
TB750 25160:295.419   Data:  0C DB FF E7 40 F2 48 41 C2 F2 00 01 00 20 08 80 ...
TB750 25160:295.448   CPU_WriteMem(520 bytes @ 0x200001F8)
TB750 25160:299.424 - 4.034ms returns 0x208
TB750 25160:299.443 JLINK_WriteMem(0x20000400, 0x1F8 Bytes, ...)
TB750 25160:299.458   Data:  02 B0 70 47 87 B0 06 90 05 91 04 92 03 93 00 20 ...
TB750 25160:299.483   CPU_WriteMem(504 bytes @ 0x20000400)
TB750 25160:303.395 - 3.972ms returns 0x1F8
TB750 25160:303.435 JLINK_HasError()
TB750 25160:303.459 JLINK_WriteReg(R0, 0x08001000)
TB750 25160:303.484 - 0.036ms returns 0
TB750 25160:303.507 JLINK_WriteReg(R1, 0x00000400)
TB750 25160:303.529 - 0.031ms returns 0
TB750 25160:303.552 JLINK_WriteReg(R2, 0x200001F8)
TB750 25160:303.572 - 0.030ms returns 0
TB750 25160:303.595 JLINK_WriteReg(R3, 0x00000000)
TB750 25160:303.616 - 0.031ms returns 0
TB750 25160:303.638 JLINK_WriteReg(R4, 0x00000000)
TB750 25160:303.658 - 0.030ms returns 0
TB750 25160:303.680 JLINK_WriteReg(R5, 0x00000000)
TB750 25160:303.701 - 0.030ms returns 0
TB750 25160:303.723 JLINK_WriteReg(R6, 0x00000000)
TB750 25160:303.743 - 0.030ms returns 0
TB750 25160:303.765 JLINK_WriteReg(R7, 0x00000000)
TB750 25160:303.786 - 0.030ms returns 0
TB750 25160:303.808 JLINK_WriteReg(R8, 0x00000000)
TB750 25160:303.829 - 0.030ms returns 0
TB750 25160:303.851 JLINK_WriteReg(R9, 0x200001F0)
TB750 25160:303.871 - 0.030ms returns 0
TB750 25160:303.893 JLINK_WriteReg(R10, 0x00000000)
TB750 25160:303.914 - 0.030ms returns 0
TB750 25160:303.936 JLINK_WriteReg(R11, 0x00000000)
TB750 25160:303.957 - 0.030ms returns 0
TB750 25160:303.979 JLINK_WriteReg(R12, 0x00000000)
TB750 25160:303.999 - 0.030ms returns 0
TB750 25160:304.021 JLINK_WriteReg(R13 (SP), 0x20000800)
TB750 25160:304.042 - 0.031ms returns 0
TB750 25160:304.065 JLINK_WriteReg(R14, 0x20000001)
TB750 25160:304.081 - 0.023ms returns 0
TB750 25160:304.097 JLINK_WriteReg(R15 (PC), 0x2000017C)
TB750 25160:304.167 - 0.077ms returns 0
TB750 25160:304.183 JLINK_WriteReg(XPSR, 0x01000000)
TB750 25160:304.198 - 0.021ms returns 0
TB750 25160:304.213 JLINK_WriteReg(MSP, 0x20000800)
TB750 25160:304.228 - 0.021ms returns 0
TB750 25160:304.243 JLINK_WriteReg(PSP, 0x20000800)
TB750 25160:304.257 - 0.021ms returns 0
TB750 25160:304.273 JLINK_WriteReg(CFBP, 0x00000000)
TB750 25160:304.288 - 0.021ms returns 0
TB750 25160:304.304 JLINK_SetBPEx(Addr = 0x20000000, Type = 0xFFFFFFF2)
TB750 25160:304.319 - 0.022ms returns 0x00000009
TB750 25160:304.335 JLINK_Go()
TB750 25160:304.351   CPU_WriteMem(4 bytes @ 0xE0002000)
TB750 25160:304.864   CPU_ReadMem(4 bytes @ 0xE0001000)
TB750 25160:308.627 - 4.306ms
TB750 25160:308.654 JLINK_IsHalted()
TB750 25160:309.148 - 0.507ms returns FALSE
TB750 25160:309.173 JLINK_HasError()
TB750 25160:313.389 JLINK_IsHalted()
TB750 25160:313.935 - 0.557ms returns FALSE
TB750 25160:313.957 JLINK_HasError()
TB750 25160:317.388 JLINK_IsHalted()
TB750 25160:317.908 - 0.529ms returns FALSE
TB750 25160:317.927 JLINK_HasError()
TB750 25160:319.387 JLINK_IsHalted()
TB750 25160:319.917 - 0.541ms returns FALSE
TB750 25160:319.941 JLINK_HasError()
TB750 25160:321.387 JLINK_IsHalted()
TB750 25160:325.305 - 3.942ms returns TRUE
TB750 25160:325.345 JLINK_ReadReg(R15 (PC))
TB750 25160:325.377   CPU_ReadMem(4 bytes @ 0xE000EE08)
TB750 25160:325.910 - 0.581ms returns 0x20000000
TB750 25160:325.942 JLINK_ClrBPEx(BPHandle = 0x00000009)
TB750 25160:325.967 - 0.035ms returns 0x00
TB750 25160:325.991 JLINK_ReadReg(R0)
TB750 25160:326.016 - 0.035ms returns 0x00000000
TB750 25160:326.663 JLINK_WriteMem(0x200001F8, 0x208 Bytes, ...)
TB750 25160:326.686   Data:  05 98 00 F4 40 10 B0 F5 40 1F 0C D1 FF E7 01 98 ...
TB750 25160:326.720   CPU_WriteMem(520 bytes @ 0x200001F8)
TB750 25160:330.729 - 4.078ms returns 0x208
TB750 25160:330.752 JLINK_WriteMem(0x20000400, 0x1F8 Bytes, ...)
TB750 25160:330.770   Data:  45 F8 02 99 03 9A 54 20 00 F0 40 F8 03 99 1D 20 ...
TB750 25160:330.799   CPU_WriteMem(504 bytes @ 0x20000400)
TB750 25160:334.729 - 3.988ms returns 0x1F8
TB750 25160:334.754 JLINK_HasError()
TB750 25160:334.774 JLINK_WriteReg(R0, 0x08001400)
TB750 25160:334.794 - 0.029ms returns 0
TB750 25160:334.814 JLINK_WriteReg(R1, 0x00000400)
TB750 25160:334.832 - 0.026ms returns 0
TB750 25160:334.851 JLINK_WriteReg(R2, 0x200001F8)
TB750 25160:334.868 - 0.026ms returns 0
TB750 25160:334.888 JLINK_WriteReg(R3, 0x00000000)
TB750 25160:334.905 - 0.026ms returns 0
TB750 25160:334.924 JLINK_WriteReg(R4, 0x00000000)
TB750 25160:334.941 - 0.026ms returns 0
TB750 25160:334.960 JLINK_WriteReg(R5, 0x00000000)
TB750 25160:334.977 - 0.026ms returns 0
TB750 25160:334.996 JLINK_WriteReg(R6, 0x00000000)
TB750 25160:335.014 - 0.026ms returns 0
TB750 25160:335.033 JLINK_WriteReg(R7, 0x00000000)
TB750 25160:335.051 - 0.026ms returns 0
TB750 25160:335.070 JLINK_WriteReg(R8, 0x00000000)
TB750 25160:335.087 - 0.026ms returns 0
TB750 25160:335.106 JLINK_WriteReg(R9, 0x200001F0)
TB750 25160:335.123 - 0.025ms returns 0
TB750 25160:335.142 JLINK_WriteReg(R10, 0x00000000)
TB750 25160:335.159 - 0.026ms returns 0
TB750 25160:335.178 JLINK_WriteReg(R11, 0x00000000)
TB750 25160:335.196 - 0.026ms returns 0
TB750 25160:335.214 JLINK_WriteReg(R12, 0x00000000)
TB750 25160:335.232 - 0.025ms returns 0
TB750 25160:335.250 JLINK_WriteReg(R13 (SP), 0x20000800)
TB750 25160:335.269 - 0.027ms returns 0
TB750 25160:335.288 JLINK_WriteReg(R14, 0x20000001)
TB750 25160:335.305 - 0.026ms returns 0
TB750 25160:335.324 JLINK_WriteReg(R15 (PC), 0x2000017C)
TB750 25160:335.342 - 0.026ms returns 0
TB750 25160:335.361 JLINK_WriteReg(XPSR, 0x01000000)
TB750 25160:335.378 - 0.026ms returns 0
TB750 25160:335.397 JLINK_WriteReg(MSP, 0x20000800)
TB750 25160:335.414 - 0.025ms returns 0
TB750 25160:335.433 JLINK_WriteReg(PSP, 0x20000800)
TB750 25160:335.452 - 0.029ms returns 0
TB750 25160:335.473 JLINK_WriteReg(CFBP, 0x00000000)
TB750 25160:335.490 - 0.026ms returns 0
TB750 25160:335.574 JLINK_SetBPEx(Addr = 0x20000000, Type = 0xFFFFFFF2)
TB750 25160:335.596 - 0.031ms returns 0x0000000A
TB750 25160:335.616 JLINK_Go()
TB750 25160:335.636   CPU_WriteMem(4 bytes @ 0xE0002000)
TB750 25160:336.179   CPU_ReadMem(4 bytes @ 0xE0001000)
TB750 25160:339.922 - 4.322ms
TB750 25160:339.950 JLINK_IsHalted()
TB750 25160:340.434 - 0.492ms returns FALSE
TB750 25160:340.452 JLINK_HasError()
TB750 25160:343.638 JLINK_IsHalted()
TB750 25160:344.142 - 0.515ms returns FALSE
TB750 25160:344.164 JLINK_HasError()
TB750 25160:345.634 JLINK_IsHalted()
TB750 25160:346.159 - 0.539ms returns FALSE
TB750 25160:346.186 JLINK_HasError()
TB750 25160:348.151 JLINK_IsHalted()
TB750 25160:348.648 - 0.507ms returns FALSE
TB750 25160:348.669 JLINK_HasError()
TB750 25160:354.158 JLINK_IsHalted()
TB750 25160:358.021 - 3.877ms returns TRUE
TB750 25160:358.047 JLINK_ReadReg(R15 (PC))
TB750 25160:358.070   CPU_ReadMem(4 bytes @ 0xE000EE08)
TB750 25160:358.596 - 0.560ms returns 0x20000000
TB750 25160:358.621 JLINK_ClrBPEx(BPHandle = 0x0000000A)
TB750 25160:358.642 - 0.031ms returns 0x00
TB750 25160:358.663 JLINK_ReadReg(R0)
TB750 25160:358.684 - 0.031ms returns 0x00000000
TB750 25160:359.264 JLINK_WriteMem(0x200001F8, 0x208 Bytes, ...)
TB750 25160:359.284   Data:  02 B0 70 47 80 B5 82 B0 40 F2 04 60 00 F0 62 F9 ...
TB750 25160:359.311   CPU_WriteMem(520 bytes @ 0x200001F8)
TB750 25160:363.288 - 4.036ms returns 0x208
TB750 25160:363.313 JLINK_WriteMem(0x20000400, 0x1F8 Bytes, ...)
TB750 25160:363.334   Data:  13 91 00 68 C0 F3 C2 20 0B 90 0B 99 02 A8 40 5C ...
TB750 25160:363.367   CPU_WriteMem(504 bytes @ 0x20000400)
TB750 25160:367.274 - 3.974ms returns 0x1F8
TB750 25160:367.304 JLINK_HasError()
TB750 25160:367.328 JLINK_WriteReg(R0, 0x08001800)
TB750 25160:367.353 - 0.035ms returns 0
TB750 25160:367.375 JLINK_WriteReg(R1, 0x00000400)
TB750 25160:367.396 - 0.031ms returns 0
TB750 25160:367.418 JLINK_WriteReg(R2, 0x200001F8)
TB750 25160:367.439 - 0.030ms returns 0
TB750 25160:367.461 JLINK_WriteReg(R3, 0x00000000)
TB750 25160:367.481 - 0.030ms returns 0
TB750 25160:367.503 JLINK_WriteReg(R4, 0x00000000)
TB750 25160:367.523 - 0.030ms returns 0
TB750 25160:367.545 JLINK_WriteReg(R5, 0x00000000)
TB750 25160:367.565 - 0.030ms returns 0
TB750 25160:367.587 JLINK_WriteReg(R6, 0x00000000)
TB750 25160:367.607 - 0.030ms returns 0
TB750 25160:367.629 JLINK_WriteReg(R7, 0x00000000)
TB750 25160:367.649 - 0.030ms returns 0
TB750 25160:367.671 JLINK_WriteReg(R8, 0x00000000)
TB750 25160:367.691 - 0.030ms returns 0
TB750 25160:367.713 JLINK_WriteReg(R9, 0x200001F0)
TB750 25160:367.733 - 0.030ms returns 0
TB750 25160:367.755 JLINK_WriteReg(R10, 0x00000000)
TB750 25160:367.776 - 0.030ms returns 0
TB750 25160:367.798 JLINK_WriteReg(R11, 0x00000000)
TB750 25160:367.818 - 0.030ms returns 0
TB750 25160:367.840 JLINK_WriteReg(R12, 0x00000000)
TB750 25160:367.861 - 0.030ms returns 0
TB750 25160:367.883 JLINK_WriteReg(R13 (SP), 0x20000800)
TB750 25160:367.904 - 0.031ms returns 0
TB750 25160:367.926 JLINK_WriteReg(R14, 0x20000001)
TB750 25160:367.946 - 0.030ms returns 0
TB750 25160:367.968 JLINK_WriteReg(R15 (PC), 0x2000017C)
TB750 25160:367.989 - 0.031ms returns 0
TB750 25160:368.011 JLINK_WriteReg(XPSR, 0x01000000)
TB750 25160:368.032 - 0.030ms returns 0
TB750 25160:368.053 JLINK_WriteReg(MSP, 0x20000800)
TB750 25160:368.074 - 0.030ms returns 0
TB750 25160:368.096 JLINK_WriteReg(PSP, 0x20000800)
TB750 25160:368.116 - 0.030ms returns 0
TB750 25160:368.138 JLINK_WriteReg(CFBP, 0x00000000)
TB750 25160:368.158 - 0.030ms returns 0
TB750 25160:368.180 JLINK_SetBPEx(Addr = 0x20000000, Type = 0xFFFFFFF2)
TB750 25160:368.200 - 0.027ms returns 0x0000000B
TB750 25160:368.216 JLINK_Go()
TB750 25160:368.233   CPU_WriteMem(4 bytes @ 0xE0002000)
TB750 25160:368.761   CPU_ReadMem(4 bytes @ 0xE0001000)
TB750 25160:372.573 - 4.376ms
TB750 25160:372.607 JLINK_IsHalted()
TB750 25160:373.100 - 0.502ms returns FALSE
TB750 25160:373.119 JLINK_HasError()
TB750 25160:378.802 JLINK_IsHalted()
TB750 25160:379.364 - 0.575ms returns FALSE
TB750 25160:379.388 JLINK_HasError()
TB750 25160:380.796 JLINK_IsHalted()
TB750 25160:381.361 - 0.575ms returns FALSE
TB750 25160:381.382 JLINK_HasError()
TB750 25160:382.800 JLINK_IsHalted()
TB750 25160:383.365 - 0.575ms returns FALSE
TB750 25160:383.386 JLINK_HasError()
TB750 25160:387.364 JLINK_IsHalted()
TB750 25160:391.292 - 3.943ms returns TRUE
TB750 25160:391.319 JLINK_ReadReg(R15 (PC))
TB750 25160:391.341   CPU_ReadMem(4 bytes @ 0xE000EE08)
TB750 25160:391.900 - 0.591ms returns 0x20000000
TB750 25160:391.921 JLINK_ClrBPEx(BPHandle = 0x0000000B)
TB750 25160:391.940 - 0.027ms returns 0x00
TB750 25160:391.958 JLINK_ReadReg(R0)
TB750 25160:391.977 - 0.027ms returns 0x00000000
TB750 25160:392.525 JLINK_WriteMem(0x200001F8, 0x208 Bytes, ...)
TB750 25160:392.552   Data:  04 00 C2 F2 00 00 00 68 44 F6 D3 51 C1 F2 62 01 ...
TB750 25160:392.588   CPU_WriteMem(520 bytes @ 0x200001F8)
TB750 25160:396.607 - 4.097ms returns 0x208
TB750 25160:396.636 JLINK_WriteMem(0x20000400, 0x1F8 Bytes, ...)
TB750 25160:396.657   Data:  82 88 03 99 08 6A 40 EA 02 20 08 62 03 98 42 F6 ...
TB750 25160:396.690   CPU_WriteMem(504 bytes @ 0x20000400)
TB750 25160:400.592 - 3.967ms returns 0x1F8
TB750 25160:400.617 JLINK_HasError()
TB750 25160:400.637 JLINK_WriteReg(R0, 0x08001C00)
TB750 25160:400.657 - 0.029ms returns 0
TB750 25160:400.677 JLINK_WriteReg(R1, 0x00000400)
TB750 25160:400.694 - 0.026ms returns 0
TB750 25160:400.713 JLINK_WriteReg(R2, 0x200001F8)
TB750 25160:400.731 - 0.026ms returns 0
TB750 25160:400.749 JLINK_WriteReg(R3, 0x00000000)
TB750 25160:400.767 - 0.026ms returns 0
TB750 25160:400.786 JLINK_WriteReg(R4, 0x00000000)
TB750 25160:400.803 - 0.026ms returns 0
TB750 25160:400.822 JLINK_WriteReg(R5, 0x00000000)
TB750 25160:400.839 - 0.026ms returns 0
